
T40D8 000:287 SEGGER J-Link V5.00d Log File (0001ms, 0265ms total)
T40D8 000:287 DLL Compiled: Jun 17 2015 22:33:29 (0001ms, 0265ms total)
T40D8 000:287 Logging started @ 2023-11-21 17:09 (0001ms, 0265ms total)
T40D8 000:288 JLINK_SetWarnOutHandler(...) (0000ms, 0265ms total)
T40D8 000:288 JLINK_OpenEx(...)
Firmware: J-Link ARM V8 compiled Jan 31 2018 18:34:52
Hardware: V8.00
S/N: 20080643
Feature(s): RDI,FlashDL,FlashBP,JFlash,GDBFull  returns O.K. (0260ms, 0525ms total)
T40D8 000:548 JLINK_GetEmuCaps()  returns 0xB9FF7BBF (0000ms, 0525ms total)
T40D8 000:548 JLINK_TIF_GetAvailable(...) (0000ms, 0525ms total)
T40D8 000:548 JLINK_SetErrorOutHandler(...) (0000ms, 0525ms total)
T40D8 000:548 JLINK_ExecCommand("ProjectFile = "E:\嵌入式计算机系统\lab\lab3\Blink\MDK-ARM\JLinkSettings.ini"", ...)  returns 0x00 (0001ms, 0526ms total)
T40D8 000:549 JLINK_ExecCommand("Device = STM32F103VB", ...)Device "STM32F103VB" selected.  returns 0x00 (0000ms, 0526ms total)
T40D8 000:549 JLINK_ExecCommand("DisableConnectionTimeout", ...)  returns 0x01 (0000ms, 0526ms total)
T40D8 000:549 JLINK_GetHardwareVersion()  returns 0x13880 (0000ms, 0526ms total)
T40D8 000:549 JLINK_GetDLLVersion()  returns 50004 (0000ms, 0526ms total)
T40D8 000:549 JLINK_GetFirmwareString(...) (0000ms, 0526ms total)
T40D8 000:549 JLINK_GetDLLVersion()  returns 50004 (0000ms, 0526ms total)
T40D8 000:549 JLINK_GetCompileDateTime() (0000ms, 0526ms total)
T40D8 000:549 JLINK_GetFirmwareString(...) (0000ms, 0526ms total)
T40D8 000:549 JLINK_GetHardwareVersion()  returns 0x13880 (0000ms, 0526ms total)
T40D8 000:549 JLINK_TIF_Select(JLINKARM_TIF_SWD)  returns 0x00 (0001ms, 0527ms total)
T40D8 000:550 JLINK_SetSpeed(5000) (0000ms, 0527ms total)
T40D8 000:550 JLINK_GetId() >0x108 TIF>Found SWD-DP with ID 0x1BA01477 >0x0D TIF> >0x28 TIF> >0x0D TIF> >0x28 TIF> >0x0D TIF> >0x21 TIF> >0x0D TIF> >0x28 TIF> >0x0D TIF> >0x28 TIF> >0x0D TIF> >0x28 TIF> >0x0D TIF> >0x21 TIF> >0x0D TIF> >0x21 TIF> >0x0D TIF> >0x28 TIF> >0x0D TIF> >0x21 TIF> >0x0D TIF> >0x21 TIF> >0x108 TIF>Found SWD-DP with ID 0x1BA01477 >0x0D TIF> >0x21 TIF> >0x0D TIF> >0x28 TIF> >0x0D TIF> >0x28 TIF> >0x0D TIF> >0x21 TIF> >0x0D TIF> >0x28 TIF> >0x0D TIF> >0x21 TIF> >0x0D TIF> >0x21 TIF>
 >0x0D TIF> >0x21 TIF> >0x0D TIF> >0x28 TIF> >0x0D TIF> >0x21 TIF> >0x0D TIF> >0x28 TIF> >0x0D TIF> >0x28 TIF> >0x0D TIF> >0x21 TIF> >0x0D TIF> >0x28 TIF> >0x0D TIF> >0x28 TIF> >0x0D TIF> >0x28 TIF> >0x0D TIF> >0x21 TIF> >0x0D TIF> >0x21 TIF> >0x0D TIF> >0x28 TIF> >0x0D TIF> >0x21 TIF> >0x0D TIF> >0x21 TIF>Found Cortex-M3 r1p1, Little endian. >0x0D TIF> >0x28 TIF> -- CPU_WriteMem(4 bytes @ 0xE0002000) -- CPU_ReadMem(4 bytes @ 0xE000EDF0) -- CPU_ReadMem(4 bytes @ 0xE0002000)
FPUnit: 6 code (BP) slots and 2 literal slots -- CPU_ReadMem(4 bytes @ 0xE000EDFC) -- CPU_ReadMem(4 bytes @ 0xE0001000) -- CPU_WriteMem(4 bytes @ 0xE0001000) -- CPU_ReadMem(4 bytes @ 0xE000ED88) -- CPU_WriteMem(4 bytes @ 0xE000ED88) -- CPU_ReadMem(4 bytes @ 0xE000ED88) -- CPU_WriteMem(4 bytes @ 0xE000ED88)CoreSight components:ROMTbl 0 @ E00FF000 -- CPU_ReadMem(16 bytes @ 0xE00FF000) -- CPU_ReadMem(16 bytes @ 0xE000EFF0) -- CPU_ReadMem(16 bytes @ 0xE000EFE0)
ROMTbl 0 [0]: FFF0F000, CID: B105E00D, PID: 001BB000 SCS -- CPU_ReadMem(16 bytes @ 0xE0001FF0) -- CPU_ReadMem(16 bytes @ 0xE0001FE0)ROMTbl 0 [1]: FFF02000, CID: B105E00D, PID: 001BB002 DWT -- CPU_ReadMem(16 bytes @ 0xE0002FF0) -- CPU_ReadMem(16 bytes @ 0xE0002FE0)ROMTbl 0 [2]: FFF03000, CID: B105E00D, PID: 000BB003 FPB -- CPU_ReadMem(16 bytes @ 0xE0000FF0) -- CPU_ReadMem(16 bytes @ 0xE0000FE0)ROMTbl 0 [3]: FFF01000, CID: B105E00D, PID: 001BB001 ITM -- CPU_ReadMem(16 bytes @ 0xE00FF010)
 -- CPU_ReadMem(16 bytes @ 0xE0040FF0) -- CPU_ReadMem(16 bytes @ 0xE0040FE0)ROMTbl 0 [4]: FFF41000, CID: B105900D, PID: 001BB923 TPIU-Lite >0x0D TIF> >0x21 TIF>  returns 0x1BA01477 (0033ms, 0560ms total)
T40D8 000:583 JLINK_GetDLLVersion()  returns 50004 (0000ms, 0560ms total)
T40D8 000:583 JLINK_CORE_GetFound()  returns 0x30000FF (0001ms, 0561ms total)
T40D8 000:584 JLINK_GetDebugInfo(0x100) -- Value=0xE00FF003  returns 0x00 (0000ms, 0561ms total)
T40D8 000:584 JLINK_GetDebugInfo(0x100) -- Value=0xE00FF003  returns 0x00 (0000ms, 0561ms total)
T40D8 000:584 JLINK_GetDebugInfo(0x101)  returns 0xFFFFFFFF (0000ms, 0561ms total)
T40D8 000:584 JLINK_ReadMemEx(0xE0041FF0, 0x0010 Bytes, ..., AccessWidth = 33554436) -- CPU is running -- CPU_ReadMem(16 bytes @ 0xE0041FF0) - Data: 00 00 00 00 00 00 00 00 00 00 00 00 00 00 00 00  returns 0x10 (0000ms, 0561ms total)
T40D8 000:584 JLINK_GetDebugInfo(0x102)  returns 0xFFFFFFFF (0000ms, 0561ms total)
T40D8 000:584 JLINK_GetDebugInfo(0x103)  returns 0xFFFFFFFF (0000ms, 0561ms total)
T40D8 000:584 JLINK_ReadMemEx(0xE0040FF0, 0x0010 Bytes, ..., AccessWidth = 33554436) -- CPU is running -- CPU_ReadMem(16 bytes @ 0xE0040FF0) - Data: 0D 00 00 00 90 00 00 00 05 00 00 00 B1 00 00 00  returns 0x10 (0001ms, 0562ms total)
T40D8 000:585 JLINK_GetDebugInfo(0x104)  returns 0xFFFFFFFF (0000ms, 0562ms total)
T40D8 000:585 JLINK_GetDebugInfo(0x105)  returns 0xFFFFFFFF (0000ms, 0562ms total)
T40D8 000:585 JLINK_GetDebugInfo(0x106)  returns 0xFFFFFFFF (0000ms, 0562ms total)
T40D8 000:585 JLINK_GetDebugInfo(0x107)  returns 0xFFFFFFFF (0000ms, 0562ms total)
T40D8 000:585 JLINK_GetDebugInfo(0x10C)  returns 0xFFFFFFFF (0000ms, 0562ms total)
T40D8 000:585 JLINK_ReadMemU32(0xE000ED00, 0x0001 Items, ...) -- CPU is running -- CPU_ReadMem(4 bytes @ 0xE000ED00) - Data: 31 C2 1F 41  returns 0x01 (0000ms, 0562ms total)
T40D8 000:585 JLINK_GetDebugInfo(0x10F)  returns 0xFFFFFFFF (0000ms, 0562ms total)
T40D8 000:585 JLINK_SetResetType(JLINKARM_RESET_TYPE_NORMAL)  returns JLINKARM_RESET_TYPE_NORMAL (0000ms, 0562ms total)
T40D8 000:585 JLINK_Reset() -- CPU_WriteMem(4 bytes @ 0xE0002000) -- CPU_ReadMem(4 bytes @ 0xE000EDFC) -- CPU_WriteMem(4 bytes @ 0xE000EDFC) -- CPU_ReadMem(4 bytes @ 0xE0001000) (0012ms, 0574ms total)
T40D8 000:597 JLINK_ReadReg(R15 (PC))  returns 0x08000188 (0000ms, 0574ms total)
T40D8 000:597 JLINK_ReadReg(XPSR)  returns 0x01000000 (0000ms, 0574ms total)
T40D8 000:597 JLINK_Halt()  returns 0x00 (0000ms, 0574ms total)
T40D8 000:597 JLINK_ReadMemU32(0xE000EDF0, 0x0001 Items, ...) -- CPU_ReadMem(4 bytes @ 0xE000EDF0) - Data: 03 00 03 00  returns 0x01 (0000ms, 0574ms total)
T40D8 000:597 JLINK_WriteU32(0xE000EDF0, 0xA05F0003) -- CPU_WriteMem(4 bytes @ 0xE000EDF0)  returns 0x00 (0001ms, 0575ms total)
T40D8 000:598 JLINK_WriteU32(0xE000EDFC, 0x01000000) -- CPU_WriteMem(4 bytes @ 0xE000EDFC)  returns 0x00 (0000ms, 0575ms total)
T40D8 000:598 JLINK_GetHWStatus(...)  returns 0x00 (0000ms, 0575ms total)
T40D8 000:598 JLINK_GetNumBPUnits(Type = 0xFFFFFF00)  returns 0x06 (0000ms, 0575ms total)
T40D8 000:598 JLINK_GetNumBPUnits(Type = 0xF0)  returns 0x2000 (0000ms, 0575ms total)
T40D8 000:599 JLINK_GetNumWPUnits()  returns 0x04 (0000ms, 0576ms total)
T40D8 000:599 JLINK_GetSpeed()  returns 0xFA0 (0000ms, 0576ms total)
T40D8 000:599 JLINK_ReadMemU32(0xE000E004, 0x0001 Items, ...) -- CPU_ReadMem(4 bytes @ 0xE000E004) - Data: 01 00 00 00  returns 0x01 (0000ms, 0576ms total)
T40D8 000:599 JLINK_ReadMemU32(0xE000E004, 0x0001 Items, ...) -- CPU_ReadMem(4 bytes @ 0xE000E004) - Data: 01 00 00 00  returns 0x01 (0001ms, 0577ms total)
T40D8 000:600 JLINK_WriteMemEx(0xE0001000, 0x001C Bytes, ..., AccessWidth = 33554436) - Data: 01 00 00 00 00 00 00 00 00 00 00 00 00 00 00 00 ... -- CPU_WriteMem(28 bytes @ 0xE0001000)  returns 0x1C (0000ms, 0577ms total)
T40D8 000:600 JLINK_ReadReg(R15 (PC))  returns 0x08000188 (0001ms, 0578ms total)
T40D8 000:601 JLINK_ReadReg(XPSR)  returns 0x01000000 (0000ms, 0578ms total)
T40D8 000:689 JLINK_SetResetType(JLINKARM_RESET_TYPE_NORMAL)  returns JLINKARM_RESET_TYPE_NORMAL (0000ms, 0578ms total)
T40D8 000:689 JLINK_Reset() -- CPU_WriteMem(4 bytes @ 0xE0002000) -- CPU_ReadMem(4 bytes @ 0xE000EDFC) -- CPU_WriteMem(4 bytes @ 0xE000EDFC) -- CPU_ReadMem(4 bytes @ 0xE0001000) (0013ms, 0591ms total)
T40D8 000:702 JLINK_ReadReg(R15 (PC))  returns 0x08000188 (0000ms, 0591ms total)
T40D8 000:702 JLINK_ReadReg(XPSR)  returns 0x01000000 (0000ms, 0591ms total)
T40D8 000:702 JLINK_ReadMemEx(0x08000188, 0x003C Bytes, ..., AccessWidth = 33554432)Mis-aligned memory read: Address: 0x08000188, NumBytes: 60, Alignment: 2 (Halfword-aligned)
  ***** Mis-aligned memory read: Address: 0x08000188, NumBytes: 60, Alignment: 2 (Halfword-aligned) -- CPU_ReadMem(128 bytes @ 0x08000180) -- Updating C cache (128 bytes @ 0x08000180) -- Read from C cache (60 bytes @ 0x08000188) - Data: 09 48 80 47 09 48 00 47 FE E7 FE E7 FE E7 FE E7 ...  returns 0x3C (0001ms, 0592ms total)
T40D8 000:835 JLINK_ReadMemEx(0x40010800, 0x000C Bytes, ..., AccessWidth = 33554436) -- CPU_ReadMem(12 bytes @ 0x40010800) - Data: 44 44 44 44 44 44 84 88 00 00 00 00  returns 0x0C (0000ms, 0592ms total)
T40D8 000:835 JLINK_ReadMemEx(0x40010800, 0x0004 Bytes, ..., AccessWidth = 33554436) -- CPU_ReadMem(4 bytes @ 0x40010800) - Data: 44 44 44 44  returns 0x04 (0001ms, 0593ms total)
T40D8 000:836 JLINK_ReadMemEx(0x40010804, 0x0004 Bytes, ..., AccessWidth = 33554436) -- CPU_ReadMem(4 bytes @ 0x40010804) - Data: 44 44 84 88  returns 0x04 (0000ms, 0593ms total)
T40D8 000:836 JLINK_ReadMemEx(0x40010808, 0x0004 Bytes, ..., AccessWidth = 33554436) -- CPU_ReadMem(4 bytes @ 0x40010808) - Data: 00 00 00 00  returns 0x04 (0001ms, 0594ms total)
T40D8 000:837 JLINK_ReadMemEx(0x4001080C, 0x0004 Bytes, ..., AccessWidth = 33554436) -- CPU_ReadMem(4 bytes @ 0x4001080C) - Data: 00 A0 00 00  returns 0x04 (0000ms, 0594ms total)
T40D8 000:837 JLINK_ReadMemEx(0x4001080C, 0x0004 Bytes, ..., AccessWidth = 33554436) -- CPU_ReadMem(4 bytes @ 0x4001080C) - Data: 00 A0 00 00  returns 0x04 (0001ms, 0595ms total)
T40D8 000:838 JLINK_ReadMemEx(0x40010818, 0x0004 Bytes, ..., AccessWidth = 33554436) -- CPU_ReadMem(4 bytes @ 0x40010818) - Data: 00 00 00 00  returns 0x04 (0000ms, 0595ms total)
T40D8 000:838 JLINK_ReadMemEx(0x40010818, 0x0004 Bytes, ..., AccessWidth = 33554436) -- CPU_ReadMem(4 bytes @ 0x40010818) - Data: 00 00 00 00  returns 0x04 (0000ms, 0595ms total)
T40D8 002:567 JLINK_ReadReg(R0)  returns 0x00000000 (0001ms, 0596ms total)
T40D8 002:568 JLINK_ReadReg(R1)  returns 0x00000003 (0000ms, 0596ms total)
T40D8 002:568 JLINK_ReadReg(R2)  returns 0x40022000 (0000ms, 0596ms total)
T40D8 002:568 JLINK_ReadReg(R3)  returns 0x04C11DB7 (0000ms, 0596ms total)
T40D8 002:568 JLINK_ReadReg(R4)  returns 0x00000000 (0000ms, 0596ms total)
T40D8 002:568 JLINK_ReadReg(R5)  returns 0x00000000 (0000ms, 0596ms total)
T40D8 002:568 JLINK_ReadReg(R6)  returns 0x00000000 (0000ms, 0596ms total)
T40D8 002:568 JLINK_ReadReg(R7)  returns 0x00000000 (0000ms, 0596ms total)
T40D8 002:568 JLINK_ReadReg(R8)  returns 0x00000000 (0000ms, 0596ms total)
T40D8 002:568 JLINK_ReadReg(R9)  returns 0x20000160 (0000ms, 0596ms total)
T40D8 002:568 JLINK_ReadReg(R10)  returns 0x00000000 (0000ms, 0596ms total)
T40D8 002:568 JLINK_ReadReg(R11)  returns 0x00000000 (0000ms, 0596ms total)
T40D8 002:568 JLINK_ReadReg(R12)  returns 0x00000000 (0000ms, 0596ms total)
T40D8 002:568 JLINK_ReadReg(R13 (SP))  returns 0x20000698 (0000ms, 0596ms total)
T40D8 002:568 JLINK_ReadReg(R14)  returns 0xFFFFFFFF (0000ms, 0596ms total)
T40D8 002:568 JLINK_ReadReg(R15 (PC))  returns 0x08000188 (0000ms, 0596ms total)
T40D8 002:568 JLINK_ReadReg(XPSR)  returns 0x01000000 (0000ms, 0596ms total)
T40D8 002:568 JLINK_ReadReg(MSP)  returns 0x20000698 (0000ms, 0596ms total)
T40D8 002:568 JLINK_ReadReg(PSP)  returns 0x20001000 (0000ms, 0596ms total)
T40D8 002:568 JLINK_ReadReg(CFBP)  returns 0x00000000 (0000ms, 0596ms total)
T3538 002:597 JLINK_ReadMemEx(0x08000188, 0x0002 Bytes, ..., AccessWidth = 33554432)Mis-aligned memory read: Address: 0x08000188, NumBytes: 2, Alignment: 2 (Halfword-aligned)
  ***** Mis-aligned memory read: Address: 0x08000188, NumBytes: 2, Alignment: 2 (Halfword-aligned) -- Read from C cache (2 bytes @ 0x08000188) - Data: 09 48  returns 0x02 (0000ms, 0596ms total)
T3538 002:598 JLINK_SetBPEx(Addr = 0x08000B88, Type = 0xFFFFFFF2)  returns 0x00000001 (0000ms, 0596ms total)
T3538 002:598 JLINK_SetBPEx(Addr = 0x08000BEE, Type = 0xFFFFFFF2)  returns 0x00000002 (0000ms, 0596ms total)
T3538 002:598 JLINK_Go() -- CPU_WriteMem(4 bytes @ 0xE0002000) -- CPU_WriteMem(4 bytes @ 0xE0002000) -- CPU_ReadMem(4 bytes @ 0xE0001000) -- CPU_WriteMem(4 bytes @ 0xE0002008) -- CPU_WriteMem(4 bytes @ 0xE000200C) -- CPU_WriteMem(4 bytes @ 0xE0002010) -- CPU_WriteMem(4 bytes @ 0xE0002014) -- CPU_WriteMem(4 bytes @ 0xE0002018) -- CPU_WriteMem(4 bytes @ 0xE000201C) -- CPU_WriteMem(4 bytes @ 0xE0001004) (0005ms, 0601ms total)
T3538 002:704 JLINK_IsHalted()  returns TRUE (0003ms, 0604ms total)
T3538 002:707 JLINK_Halt()  returns 0x00 (0000ms, 0601ms total)
T3538 002:707 JLINK_IsHalted()  returns TRUE (0000ms, 0601ms total)
T3538 002:707 JLINK_IsHalted()  returns TRUE (0000ms, 0601ms total)
T3538 002:707 JLINK_IsHalted()  returns TRUE (0000ms, 0601ms total)
T3538 002:707 JLINK_ReadReg(R15 (PC))  returns 0x08000B88 (0000ms, 0601ms total)
T3538 002:707 JLINK_ReadReg(XPSR)  returns 0x21000000 (0000ms, 0601ms total)
T3538 002:707 JLINK_ClrBPEx(BPHandle = 0x00000001)  returns 0x00 (0000ms, 0601ms total)
T3538 002:707 JLINK_ClrBPEx(BPHandle = 0x00000002)  returns 0x00 (0000ms, 0601ms total)
T3538 002:707 JLINK_ReadMemU32(0xE000ED30, 0x0001 Items, ...) -- CPU_ReadMem(4 bytes @ 0xE000ED30) - Data: 03 00 00 00  returns 0x01 (0001ms, 0602ms total)
T3538 002:708 JLINK_ReadMemU32(0xE0001028, 0x0001 Items, ...) -- CPU_ReadMem(4 bytes @ 0xE0001028) - Data: 00 00 00 00  returns 0x01 (0000ms, 0602ms total)
T3538 002:708 JLINK_ReadMemU32(0xE0001038, 0x0001 Items, ...) -- CPU_ReadMem(4 bytes @ 0xE0001038) - Data: 00 02 00 00  returns 0x01 (0001ms, 0603ms total)
T3538 002:709 JLINK_ReadMemU32(0xE0001048, 0x0001 Items, ...) -- CPU_ReadMem(4 bytes @ 0xE0001048) - Data: 00 00 00 00  returns 0x01 (0000ms, 0603ms total)
T3538 002:709 JLINK_ReadMemU32(0xE0001058, 0x0001 Items, ...) -- CPU_ReadMem(4 bytes @ 0xE0001058) - Data: 00 00 00 00  returns 0x01 (0001ms, 0604ms total)
T3538 002:710 JLINK_ReadReg(R0)  returns 0x20000098 (0000ms, 0604ms total)
T3538 002:710 JLINK_ReadReg(R1)  returns 0x20000298 (0000ms, 0604ms total)
T3538 002:710 JLINK_ReadReg(R2)  returns 0x20000298 (0000ms, 0604ms total)
T3538 002:710 JLINK_ReadReg(R3)  returns 0x20000298 (0000ms, 0604ms total)
T3538 002:710 JLINK_ReadReg(R4)  returns 0x00000000 (0000ms, 0604ms total)
T3538 002:710 JLINK_ReadReg(R5)  returns 0x20000038 (0000ms, 0604ms total)
T3538 002:710 JLINK_ReadReg(R6)  returns 0x00000000 (0000ms, 0604ms total)
T3538 002:710 JLINK_ReadReg(R7)  returns 0x00000000 (0000ms, 0604ms total)
T3538 002:710 JLINK_ReadReg(R8)  returns 0x00000000 (0000ms, 0604ms total)
T3538 002:710 JLINK_ReadReg(R9)  returns 0x20000160 (0000ms, 0604ms total)
T3538 002:710 JLINK_ReadReg(R10)  returns 0x08000C48 (0000ms, 0604ms total)
T3538 002:710 JLINK_ReadReg(R11)  returns 0x00000000 (0000ms, 0604ms total)
T3538 002:710 JLINK_ReadReg(R12)  returns 0x20000078 (0000ms, 0604ms total)
T3538 002:710 JLINK_ReadReg(R13 (SP))  returns 0x20000698 (0000ms, 0604ms total)
T3538 002:710 JLINK_ReadReg(R14)  returns 0x08000177 (0000ms, 0604ms total)
T3538 002:710 JLINK_ReadReg(R15 (PC))  returns 0x08000B88 (0000ms, 0604ms total)
T3538 002:710 JLINK_ReadReg(XPSR)  returns 0x21000000 (0000ms, 0604ms total)
T3538 002:710 JLINK_ReadReg(MSP)  returns 0x20000698 (0000ms, 0604ms total)
T3538 002:710 JLINK_ReadReg(PSP)  returns 0x20001000 (0000ms, 0604ms total)
T3538 002:710 JLINK_ReadReg(CFBP)  returns 0x00000000 (0000ms, 0604ms total)
T40D8 002:710 JLINK_ReadMemEx(0x00000000, 0x0004 Bytes, ..., AccessWidth = 33554432) -- CPU_ReadMem(4 bytes @ 0x00000004)Mis-aligned memory read: Address: 0x00000000, NumBytes: 4, Alignment: 2 (Halfword-aligned)
  ***** Mis-aligned memory read: Address: 0x00000000, NumBytes: 4, Alignment: 2 (Halfword-aligned) -- CPU_ReadMem(64 bytes @ 0x08000000) -- Updating C cache (64 bytes @ 0x08000000) -- Read from C cache (4 bytes @ 0x08000000) - Data: 98 06 00 20  returns 0x04 (0002ms, 0606ms total)
T40D8 002:718 JLINK_ReadMemU32(0xE0001004, 0x0001 Items, ...) -- CPU_ReadMem(4 bytes @ 0xE0001004) - Data: 04 04 00 00  returns 0x01 (0000ms, 0606ms total)
T40D8 002:720 JLINK_ReadMemEx(0x40010800, 0x000C Bytes, ..., AccessWidth = 33554436) -- CPU_ReadMem(12 bytes @ 0x40010800) - Data: 44 44 44 44 44 44 84 88 00 00 00 00  returns 0x0C (0000ms, 0606ms total)
T40D8 002:720 JLINK_ReadMemEx(0x40010800, 0x0004 Bytes, ..., AccessWidth = 33554436) -- CPU_ReadMem(4 bytes @ 0x40010800) - Data: 44 44 44 44  returns 0x04 (0001ms, 0607ms total)
T40D8 002:721 JLINK_ReadMemEx(0x40010804, 0x0004 Bytes, ..., AccessWidth = 33554436) -- CPU_ReadMem(4 bytes @ 0x40010804) - Data: 44 44 84 88  returns 0x04 (0000ms, 0607ms total)
T40D8 002:721 JLINK_ReadMemEx(0x40010808, 0x0004 Bytes, ..., AccessWidth = 33554436) -- CPU_ReadMem(4 bytes @ 0x40010808) - Data: 00 00 00 00  returns 0x04 (0001ms, 0608ms total)
T40D8 002:722 JLINK_ReadMemEx(0x4001080C, 0x0004 Bytes, ..., AccessWidth = 33554436) -- CPU_ReadMem(4 bytes @ 0x4001080C) - Data: 00 A0 00 00  returns 0x04 (0000ms, 0608ms total)
T40D8 002:722 JLINK_ReadMemEx(0x4001080C, 0x0004 Bytes, ..., AccessWidth = 33554436) -- CPU_ReadMem(4 bytes @ 0x4001080C) - Data: 00 A0 00 00  returns 0x04 (0000ms, 0608ms total)
T40D8 002:722 JLINK_ReadMemEx(0x40010818, 0x0004 Bytes, ..., AccessWidth = 33554436) -- CPU_ReadMem(4 bytes @ 0x40010818) - Data: 00 00 00 00  returns 0x04 (0001ms, 0609ms total)
T40D8 002:723 JLINK_ReadMemEx(0x40010818, 0x0004 Bytes, ..., AccessWidth = 33554436) -- CPU_ReadMem(4 bytes @ 0x40010818) - Data: 00 00 00 00  returns 0x04 (0000ms, 0609ms total)
T40D8 002:723 JLINK_ReadMemEx(0x08000A88, 0x003C Bytes, ..., AccessWidth = 33554432)Mis-aligned memory read: Address: 0x08000A88, NumBytes: 60, Alignment: 2 (Halfword-aligned)
  ***** Mis-aligned memory read: Address: 0x08000A88, NumBytes: 60, Alignment: 2 (Halfword-aligned) -- CPU_ReadMem(128 bytes @ 0x08000A80) -- Updating C cache (128 bytes @ 0x08000A80) -- Read from C cache (60 bytes @ 0x08000A88) - Data: 41 F0 04 01 81 61 81 69 01 F0 04 01 04 91 81 69 ...  returns 0x3C (0002ms, 0611ms total)
T40D8 002:725 JLINK_ReadMemEx(0x08000AC4, 0x003C Bytes, ..., AccessWidth = 33554432)Mis-aligned memory read: Address: 0x08000AC4, NumBytes: 60, Alignment: 2 (Halfword-aligned)
  ***** Mis-aligned memory read: Address: 0x08000AC4, NumBytes: 60, Alignment: 2 (Halfword-aligned) -- Read from C cache (60 bytes @ 0x08000AC4) - Data: 00 95 02 26 01 25 03 96 CD E9 01 54 69 46 38 46 ...  returns 0x3C (0000ms, 0611ms total)
T40D8 002:725 JLINK_ReadMemEx(0x08000B00, 0x003C Bytes, ..., AccessWidth = 33554432)Mis-aligned memory read: Address: 0x08000B00, NumBytes: 60, Alignment: 2 (Halfword-aligned)
  ***** Mis-aligned memory read: Address: 0x08000B00, NumBytes: 60, Alignment: 2 (Halfword-aligned) -- CPU_ReadMem(64 bytes @ 0x08000B00) -- Updating C cache (64 bytes @ 0x08000B00) -- Read from C cache (60 bytes @ 0x08000B00) - Data: 70 47 70 47 FF F7 C2 BC 30 B5 8F B0 28 21 68 46 ...  returns 0x3C (0001ms, 0612ms total)
T40D8 002:726 JLINK_ReadMemEx(0x08000B3C, 0x003C Bytes, ..., AccessWidth = 33554432)Mis-aligned memory read: Address: 0x08000B3C, NumBytes: 60, Alignment: 2 (Halfword-aligned)
  ***** Mis-aligned memory read: Address: 0x08000B3C, NumBytes: 60, Alignment: 2 (Halfword-aligned) -- CPU_ReadMem(64 bytes @ 0x08000B40) -- Updating C cache (64 bytes @ 0x08000B40) -- Read from C cache (60 bytes @ 0x08000B3C) - Data: 72 B6 FE E7 0F 20 CD E9 0A 05 4F F4 80 60 CD E9 ...  returns 0x3C (0001ms, 0613ms total)
T40D8 002:727 JLINK_ReadMemEx(0x08000B78, 0x003C Bytes, ..., AccessWidth = 33554432)Mis-aligned memory read: Address: 0x08000B78, NumBytes: 60, Alignment: 2 (Halfword-aligned)
  ***** Mis-aligned memory read: Address: 0x08000B78, NumBytes: 60, Alignment: 2 (Halfword-aligned) -- CPU_ReadMem(64 bytes @ 0x08000B80) -- Updating C cache (64 bytes @ 0x08000B80) -- Read from C cache (60 bytes @ 0x08000B78) - Data: 70 47 00 F0 0F 00 00 F1 E0 20 80 F8 14 1D 70 47 ...  returns 0x3C (0001ms, 0614ms total)
T3538 015:358 JLINK_ReadMemEx(0x08000B88, 0x0002 Bytes, ..., AccessWidth = 33554432)Mis-aligned memory read: Address: 0x08000B88, NumBytes: 2, Alignment: 2 (Halfword-aligned)
  ***** Mis-aligned memory read: Address: 0x08000B88, NumBytes: 2, Alignment: 2 (Halfword-aligned) -- Read from C cache (2 bytes @ 0x08000B88) - Data: FF F7  returns 0x02 (0003ms, 0617ms total)
T3538 015:361 JLINK_SetBPEx(Addr = 0x08000BEE, Type = 0xFFFFFFF2)  returns 0x00000003 (0000ms, 0617ms total)
T3538 015:361 JLINK_Go() -- CPU_WriteMem(4 bytes @ 0xE0002000) -- CPU_ReadMem(4 bytes @ 0xE0001000) -- CPU_WriteMem(4 bytes @ 0xE0002008) -- CPU_WriteMem(4 bytes @ 0xE000200C) (0003ms, 0620ms total)
T3538 015:465 JLINK_IsHalted()  returns FALSE (0000ms, 0620ms total)
T3538 015:565 JLINK_IsHalted()  returns FALSE (0000ms, 0620ms total)
T3538 015:667 JLINK_IsHalted()  returns FALSE (0000ms, 0620ms total)
T3538 015:768 JLINK_IsHalted()  returns FALSE (0000ms, 0620ms total)
T3538 015:869 JLINK_ReadMemU32(0xE0001004, 0x0001 Items, ...) -- CPU is running -- CPU_ReadMem(4 bytes @ 0xE0001004) - Data: 4C 54 E8 01  returns 0x01 (0000ms, 0620ms total)
T40D8 015:871 JLINK_ReadMemEx(0x40010800, 0x000C Bytes, ..., AccessWidth = 33554436) -- CPU is running -- CPU_ReadMem(12 bytes @ 0x40010800) - Data: 44 44 44 44 44 44 84 88 2C 9F 00 00  returns 0x0C (0000ms, 0620ms total)
T40D8 015:871 JLINK_ReadMemEx(0x40010800, 0x0004 Bytes, ..., AccessWidth = 33554436) -- CPU is running -- CPU_ReadMem(4 bytes @ 0x40010800) - Data: 44 44 44 44  returns 0x04 (0001ms, 0621ms total)
T40D8 015:872 JLINK_ReadMemEx(0x40010804, 0x0004 Bytes, ..., AccessWidth = 33554436) -- CPU is running -- CPU_ReadMem(4 bytes @ 0x40010804) - Data: 44 44 84 88  returns 0x04 (0001ms, 0622ms total)
T40D8 015:873 JLINK_ReadMemEx(0x40010808, 0x0004 Bytes, ..., AccessWidth = 33554436) -- CPU is running -- CPU_ReadMem(4 bytes @ 0x40010808) - Data: 2C 9F 00 00  returns 0x04 (0000ms, 0622ms total)
T40D8 015:873 JLINK_ReadMemEx(0x4001080C, 0x0004 Bytes, ..., AccessWidth = 33554436) -- CPU is running -- CPU_ReadMem(4 bytes @ 0x4001080C) - Data: 00 A0 00 00  returns 0x04 (0001ms, 0623ms total)
T40D8 015:874 JLINK_ReadMemEx(0x4001080C, 0x0004 Bytes, ..., AccessWidth = 33554436) -- CPU is running -- CPU_ReadMem(4 bytes @ 0x4001080C) - Data: 00 A0 00 00  returns 0x04 (0000ms, 0623ms total)
T40D8 015:874 JLINK_ReadMemEx(0x40010818, 0x0004 Bytes, ..., AccessWidth = 33554436) -- CPU is running -- CPU_ReadMem(4 bytes @ 0x40010818) - Data: 00 00 00 00  returns 0x04 (0001ms, 0624ms total)
T40D8 015:875 JLINK_ReadMemEx(0x40010818, 0x0004 Bytes, ..., AccessWidth = 33554436) -- CPU is running -- CPU_ReadMem(4 bytes @ 0x40010818) - Data: 00 00 00 00  returns 0x04 (0000ms, 0624ms total)
T3538 015:877 JLINK_IsHalted()  returns TRUE (0003ms, 0627ms total)
T3538 015:880 JLINK_Halt()  returns 0x00 (0000ms, 0624ms total)
T3538 015:880 JLINK_IsHalted()  returns TRUE (0000ms, 0624ms total)
T3538 015:880 JLINK_IsHalted()  returns TRUE (0000ms, 0624ms total)
T3538 015:880 JLINK_IsHalted()  returns TRUE (0000ms, 0624ms total)
T3538 015:880 JLINK_ReadReg(R15 (PC))  returns 0x08000BEE (0000ms, 0624ms total)
T3538 015:880 JLINK_ReadReg(XPSR)  returns 0x01000000 (0000ms, 0624ms total)
T3538 015:880 JLINK_ClrBPEx(BPHandle = 0x00000003)  returns 0x00 (0000ms, 0624ms total)
T3538 015:880 JLINK_ReadMemU32(0xE000ED30, 0x0001 Items, ...) -- CPU_ReadMem(4 bytes @ 0xE000ED30) - Data: 03 00 00 00  returns 0x01 (0001ms, 0625ms total)
T3538 015:881 JLINK_ReadMemU32(0xE0001028, 0x0001 Items, ...) -- CPU_ReadMem(4 bytes @ 0xE0001028) - Data: 00 00 00 00  returns 0x01 (0000ms, 0625ms total)
T3538 015:881 JLINK_ReadMemU32(0xE0001038, 0x0001 Items, ...) -- CPU_ReadMem(4 bytes @ 0xE0001038) - Data: 00 02 00 00  returns 0x01 (0001ms, 0626ms total)
T3538 015:882 JLINK_ReadMemU32(0xE0001048, 0x0001 Items, ...) -- CPU_ReadMem(4 bytes @ 0xE0001048) - Data: 00 00 00 00  returns 0x01 (0001ms, 0627ms total)
T3538 015:883 JLINK_ReadMemU32(0xE0001058, 0x0001 Items, ...) -- CPU_ReadMem(4 bytes @ 0xE0001058) - Data: 00 00 00 00  returns 0x01 (0000ms, 0627ms total)
T3538 015:883 JLINK_ReadReg(R0)  returns 0x00000001 (0000ms, 0627ms total)
T3538 015:883 JLINK_ReadReg(R1)  returns 0x00008000 (0000ms, 0627ms total)
T3538 015:883 JLINK_ReadReg(R2)  returns 0x00000001 (0000ms, 0627ms total)
T3538 015:883 JLINK_ReadReg(R3)  returns 0x00000000 (0000ms, 0627ms total)
T3538 015:883 JLINK_ReadReg(R4)  returns 0x20000000 (0000ms, 0627ms total)
T3538 015:883 JLINK_ReadReg(R5)  returns 0x40011800 (0000ms, 0627ms total)
T3538 015:883 JLINK_ReadReg(R6)  returns 0x000001F4 (0000ms, 0627ms total)
T3538 015:883 JLINK_ReadReg(R7)  returns 0x20000008 (0000ms, 0627ms total)
T3538 015:883 JLINK_ReadReg(R8)  returns 0x00000000 (0000ms, 0627ms total)
T3538 015:883 JLINK_ReadReg(R9)  returns 0x0000FF00 (0000ms, 0627ms total)
T3538 015:883 JLINK_ReadReg(R10)  returns 0x08000C48 (0000ms, 0627ms total)
T3538 015:883 JLINK_ReadReg(R11)  returns 0x00000000 (0000ms, 0627ms total)
T3538 015:883 JLINK_ReadReg(R12)  returns 0x0000F000 (0000ms, 0627ms total)
T3538 015:883 JLINK_ReadReg(R13 (SP))  returns 0x20000698 (0000ms, 0627ms total)
T3538 015:883 JLINK_ReadReg(R14)  returns 0x08000BE7 (0000ms, 0627ms total)
T3538 015:883 JLINK_ReadReg(R15 (PC))  returns 0x08000BEE (0000ms, 0627ms total)
T3538 015:883 JLINK_ReadReg(XPSR)  returns 0x01000000 (0000ms, 0627ms total)
T3538 015:883 JLINK_ReadReg(MSP)  returns 0x20000698 (0000ms, 0627ms total)
T3538 015:883 JLINK_ReadReg(PSP)  returns 0x20001000 (0000ms, 0627ms total)
T3538 015:883 JLINK_ReadReg(CFBP)  returns 0x00000000 (0000ms, 0627ms total)
T40D8 015:884 JLINK_ReadMemEx(0x00000000, 0x0004 Bytes, ..., AccessWidth = 33554432) -- CPU_ReadMem(4 bytes @ 0x00000004)Mis-aligned memory read: Address: 0x00000000, NumBytes: 4, Alignment: 2 (Halfword-aligned)
  ***** Mis-aligned memory read: Address: 0x00000000, NumBytes: 4, Alignment: 2 (Halfword-aligned) -- CPU_ReadMem(64 bytes @ 0x08000000) -- Updating C cache (64 bytes @ 0x08000000) -- Read from C cache (4 bytes @ 0x08000000) - Data: 98 06 00 20  returns 0x04 (0001ms, 0628ms total)
T40D8 015:885 JLINK_ReadMemU32(0xE0001004, 0x0001 Items, ...) -- CPU_ReadMem(4 bytes @ 0xE0001004) - Data: 4C 54 E8 01  returns 0x01 (0001ms, 0629ms total)
T40D8 015:887 JLINK_ReadMemEx(0x40010800, 0x000C Bytes, ..., AccessWidth = 33554436) -- CPU_ReadMem(12 bytes @ 0x40010800) - Data: 44 44 44 44 44 44 84 88 2C 9F 00 00  returns 0x0C (0000ms, 0629ms total)
T40D8 015:887 JLINK_ReadMemEx(0x40010800, 0x0004 Bytes, ..., AccessWidth = 33554436) -- CPU_ReadMem(4 bytes @ 0x40010800) - Data: 44 44 44 44  returns 0x04 (0001ms, 0630ms total)
T40D8 015:888 JLINK_ReadMemEx(0x40010804, 0x0004 Bytes, ..., AccessWidth = 33554436) -- CPU_ReadMem(4 bytes @ 0x40010804) - Data: 44 44 84 88  returns 0x04 (0000ms, 0630ms total)
T40D8 015:888 JLINK_ReadMemEx(0x40010808, 0x0004 Bytes, ..., AccessWidth = 33554436) -- CPU_ReadMem(4 bytes @ 0x40010808) - Data: 2C 9F 00 00  returns 0x04 (0000ms, 0630ms total)
T40D8 015:888 JLINK_ReadMemEx(0x4001080C, 0x0004 Bytes, ..., AccessWidth = 33554436) -- CPU_ReadMem(4 bytes @ 0x4001080C) - Data: 00 A0 00 00  returns 0x04 (0001ms, 0631ms total)
T40D8 015:889 JLINK_ReadMemEx(0x4001080C, 0x0004 Bytes, ..., AccessWidth = 33554436) -- CPU_ReadMem(4 bytes @ 0x4001080C) - Data: 00 A0 00 00  returns 0x04 (0000ms, 0631ms total)
T40D8 015:889 JLINK_ReadMemEx(0x40010818, 0x0004 Bytes, ..., AccessWidth = 33554436) -- CPU_ReadMem(4 bytes @ 0x40010818) - Data: 00 00 00 00  returns 0x04 (0001ms, 0632ms total)
T40D8 015:890 JLINK_ReadMemEx(0x40010818, 0x0004 Bytes, ..., AccessWidth = 33554436) -- CPU_ReadMem(4 bytes @ 0x40010818) - Data: 00 00 00 00  returns 0x04 (0000ms, 0632ms total)
T40D8 015:890 JLINK_ReadMemEx(0x08000BE6, 0x0002 Bytes, ..., AccessWidth = 33554432)Mis-aligned memory read: Address: 0x08000BE6, NumBytes: 2, Alignment: 2 (Halfword-aligned)
  ***** Mis-aligned memory read: Address: 0x08000BE6, NumBytes: 2, Alignment: 2 (Halfword-aligned) -- CPU_ReadMem(64 bytes @ 0x08000BC0) -- Updating C cache (64 bytes @ 0x08000BC0) -- Read from C cache (2 bytes @ 0x08000BE6) - Data: 20 68  returns 0x02 (0001ms, 0633ms total)
T40D8 015:891 JLINK_ReadMemEx(0x08000BE8, 0x0018 Bytes, ..., AccessWidth = 33554432)Mis-aligned memory read: Address: 0x08000BE8, NumBytes: 24, Alignment: 2 (Halfword-aligned)
  ***** Mis-aligned memory read: Address: 0x08000BE8, NumBytes: 24, Alignment: 2 (Halfword-aligned) -- Read from C cache (24 bytes @ 0x08000BE8) - Data: 08 28 02 D2 40 1C 20 60 E0 E7 C4 F8 00 80 DD E7 ...  returns 0x18 (0000ms, 0633ms total)
T40D8 015:891 JLINK_ReadMemEx(0x08000C00, 0x0024 Bytes, ..., AccessWidth = 33554432)Mis-aligned memory read: Address: 0x08000C00, NumBytes: 36, Alignment: 2 (Halfword-aligned)
  ***** Mis-aligned memory read: Address: 0x08000C00, NumBytes: 36, Alignment: 2 (Halfword-aligned) -- CPU_ReadMem(64 bytes @ 0x08000C00) -- Updating C cache (64 bytes @ 0x08000C00) -- Read from C cache (36 bytes @ 0x08000C00) - Data: 08 00 00 20 01 02 02 03 04 05 06 07 08 09 0A 0B ...  returns 0x24 (0001ms, 0634ms total)
T3538 019:548 JLINK_ReadMemEx(0x08000BEE, 0x0002 Bytes, ..., AccessWidth = 33554432)Mis-aligned memory read: Address: 0x08000BEE, NumBytes: 2, Alignment: 2 (Halfword-aligned)
  ***** Mis-aligned memory read: Address: 0x08000BEE, NumBytes: 2, Alignment: 2 (Halfword-aligned) -- Read from C cache (2 bytes @ 0x08000BEE) - Data: 20 60  returns 0x02 (0001ms, 0635ms total)
T3538 019:549 JLINK_Step() -- Read from C cache (2 bytes @ 0x08000BEE) -- CPU_WriteMem(4 bytes @ 0x20000000) -- Simulated  returns 0x00 (0002ms, 0637ms total)
T3538 019:551 JLINK_ReadReg(R15 (PC))  returns 0x08000BF0 (0000ms, 0637ms total)
T3538 019:551 JLINK_ReadReg(XPSR)  returns 0x01000000 (0000ms, 0637ms total)
T3538 019:551 JLINK_SetBPEx(Addr = 0x08000BEE, Type = 0xFFFFFFF2)  returns 0x00000004 (0000ms, 0637ms total)
T3538 019:551 JLINK_Go() -- CPU_WriteMem(4 bytes @ 0xE0002000) -- CPU_ReadMem(4 bytes @ 0xE0001000) -- CPU_WriteMem(4 bytes @ 0xE0001004) (0002ms, 0639ms total)
T3538 019:654 JLINK_IsHalted()  returns FALSE (0000ms, 0639ms total)
T3538 019:755 JLINK_IsHalted()  returns FALSE (0000ms, 0639ms total)
T3538 019:856 JLINK_IsHalted()  returns FALSE (0000ms, 0639ms total)
T3538 019:957 JLINK_IsHalted()  returns FALSE (0000ms, 0639ms total)
T3538 020:058 JLINK_ReadMemU32(0xE0001004, 0x0001 Items, ...) -- CPU is running -- CPU_ReadMem(4 bytes @ 0xE0001004) - Data: 32 9C D0 03  returns 0x01 (0000ms, 0639ms total)
T40D8 020:060 JLINK_ReadMemEx(0x40010800, 0x000C Bytes, ..., AccessWidth = 33554436) -- CPU is running -- CPU_ReadMem(12 bytes @ 0x40010800) - Data: 44 44 44 44 44 44 84 88 2C 9F 00 00  returns 0x0C (0001ms, 0640ms total)
T40D8 020:061 JLINK_ReadMemEx(0x40010800, 0x0004 Bytes, ..., AccessWidth = 33554436) -- CPU is running -- CPU_ReadMem(4 bytes @ 0x40010800) - Data: 44 44 44 44  returns 0x04 (0000ms, 0640ms total)
T40D8 020:061 JLINK_ReadMemEx(0x40010804, 0x0004 Bytes, ..., AccessWidth = 33554436) -- CPU is running -- CPU_ReadMem(4 bytes @ 0x40010804) - Data: 44 44 84 88  returns 0x04 (0001ms, 0641ms total)
T40D8 020:062 JLINK_ReadMemEx(0x40010808, 0x0004 Bytes, ..., AccessWidth = 33554436) -- CPU is running -- CPU_ReadMem(4 bytes @ 0x40010808) - Data: 2C 9F 00 00  returns 0x04 (0001ms, 0642ms total)
T40D8 020:063 JLINK_ReadMemEx(0x4001080C, 0x0004 Bytes, ..., AccessWidth = 33554436) -- CPU is running -- CPU_ReadMem(4 bytes @ 0x4001080C) - Data: 00 A0 00 00  returns 0x04 (0000ms, 0642ms total)
T40D8 020:063 JLINK_ReadMemEx(0x4001080C, 0x0004 Bytes, ..., AccessWidth = 33554436) -- CPU is running -- CPU_ReadMem(4 bytes @ 0x4001080C) - Data: 00 A0 00 00  returns 0x04 (0001ms, 0643ms total)
T40D8 020:064 JLINK_ReadMemEx(0x40010818, 0x0004 Bytes, ..., AccessWidth = 33554436) -- CPU is running -- CPU_ReadMem(4 bytes @ 0x40010818) - Data: 00 00 00 00  returns 0x04 (0000ms, 0643ms total)
T40D8 020:064 JLINK_ReadMemEx(0x40010818, 0x0004 Bytes, ..., AccessWidth = 33554436) -- CPU is running -- CPU_ReadMem(4 bytes @ 0x40010818) - Data: 00 00 00 00  returns 0x04 (0001ms, 0644ms total)
T3538 020:065 JLINK_IsHalted()  returns TRUE (0003ms, 0647ms total)
T3538 020:068 JLINK_Halt()  returns 0x00 (0000ms, 0644ms total)
T3538 020:068 JLINK_IsHalted()  returns TRUE (0000ms, 0644ms total)
T3538 020:068 JLINK_IsHalted()  returns TRUE (0000ms, 0644ms total)
T3538 020:068 JLINK_IsHalted()  returns TRUE (0000ms, 0644ms total)
T3538 020:068 JLINK_ReadReg(R15 (PC))  returns 0x08000BEE (0000ms, 0644ms total)
T3538 020:068 JLINK_ReadReg(XPSR)  returns 0x01000000 (0000ms, 0644ms total)
T3538 020:068 JLINK_ClrBPEx(BPHandle = 0x00000004)  returns 0x00 (0000ms, 0644ms total)
T3538 020:068 JLINK_ReadMemU32(0xE000ED30, 0x0001 Items, ...) -- CPU_ReadMem(4 bytes @ 0xE000ED30) - Data: 03 00 00 00  returns 0x01 (0000ms, 0644ms total)
T3538 020:068 JLINK_ReadMemU32(0xE0001028, 0x0001 Items, ...) -- CPU_ReadMem(4 bytes @ 0xE0001028) - Data: 00 00 00 00  returns 0x01 (0001ms, 0645ms total)
T3538 020:069 JLINK_ReadMemU32(0xE0001038, 0x0001 Items, ...) -- CPU_ReadMem(4 bytes @ 0xE0001038) - Data: 00 02 00 00  returns 0x01 (0000ms, 0645ms total)
T3538 020:069 JLINK_ReadMemU32(0xE0001048, 0x0001 Items, ...) -- CPU_ReadMem(4 bytes @ 0xE0001048) - Data: 00 00 00 00  returns 0x01 (0001ms, 0646ms total)
T3538 020:070 JLINK_ReadMemU32(0xE0001058, 0x0001 Items, ...) -- CPU_ReadMem(4 bytes @ 0xE0001058) - Data: 00 00 00 00  returns 0x01 (0000ms, 0646ms total)
T3538 020:070 JLINK_ReadReg(R0)  returns 0x00000002 (0000ms, 0646ms total)
T3538 020:070 JLINK_ReadReg(R1)  returns 0x00004000 (0000ms, 0646ms total)
T3538 020:070 JLINK_ReadReg(R2)  returns 0x00000001 (0000ms, 0646ms total)
T3538 020:070 JLINK_ReadReg(R3)  returns 0x00000000 (0000ms, 0646ms total)
T3538 020:070 JLINK_ReadReg(R4)  returns 0x20000000 (0000ms, 0646ms total)
T3538 020:070 JLINK_ReadReg(R5)  returns 0x40011800 (0000ms, 0646ms total)
T3538 020:070 JLINK_ReadReg(R6)  returns 0x000001F4 (0000ms, 0646ms total)
T3538 020:070 JLINK_ReadReg(R7)  returns 0x20000008 (0000ms, 0646ms total)
T3538 020:070 JLINK_ReadReg(R8)  returns 0x00000000 (0000ms, 0646ms total)
T3538 020:070 JLINK_ReadReg(R9)  returns 0x0000FF00 (0000ms, 0646ms total)
T3538 020:070 JLINK_ReadReg(R10)  returns 0x08000C48 (0000ms, 0646ms total)
T3538 020:070 JLINK_ReadReg(R11)  returns 0x00000000 (0000ms, 0646ms total)
T3538 020:070 JLINK_ReadReg(R12)  returns 0x0000F000 (0000ms, 0646ms total)
T3538 020:070 JLINK_ReadReg(R13 (SP))  returns 0x20000698 (0000ms, 0646ms total)
T3538 020:070 JLINK_ReadReg(R14)  returns 0x08000BE7 (0000ms, 0646ms total)
T3538 020:070 JLINK_ReadReg(R15 (PC))  returns 0x08000BEE (0001ms, 0647ms total)
T3538 020:071 JLINK_ReadReg(XPSR)  returns 0x01000000 (0000ms, 0647ms total)
T3538 020:071 JLINK_ReadReg(MSP)  returns 0x20000698 (0000ms, 0647ms total)
T3538 020:071 JLINK_ReadReg(PSP)  returns 0x20001000 (0000ms, 0647ms total)
T3538 020:071 JLINK_ReadReg(CFBP)  returns 0x00000000 (0000ms, 0647ms total)
T40D8 020:071 JLINK_ReadMemEx(0x00000000, 0x0004 Bytes, ..., AccessWidth = 33554432) -- CPU_ReadMem(4 bytes @ 0x00000004)Mis-aligned memory read: Address: 0x00000000, NumBytes: 4, Alignment: 2 (Halfword-aligned)
  ***** Mis-aligned memory read: Address: 0x00000000, NumBytes: 4, Alignment: 2 (Halfword-aligned) -- CPU_ReadMem(64 bytes @ 0x08000000) -- Updating C cache (64 bytes @ 0x08000000) -- Read from C cache (4 bytes @ 0x08000000) - Data: 98 06 00 20  returns 0x04 (0001ms, 0648ms total)
T40D8 020:072 JLINK_ReadMemU32(0xE0001004, 0x0001 Items, ...) -- CPU_ReadMem(4 bytes @ 0xE0001004) - Data: 32 9C D0 03  returns 0x01 (0001ms, 0649ms total)
T40D8 020:073 JLINK_ReadMemEx(0x40010800, 0x000C Bytes, ..., AccessWidth = 33554436) -- CPU_ReadMem(12 bytes @ 0x40010800) - Data: 44 44 44 44 44 44 84 88 2C 9F 00 00  returns 0x0C (0001ms, 0650ms total)
T40D8 020:074 JLINK_ReadMemEx(0x40010800, 0x0004 Bytes, ..., AccessWidth = 33554436) -- CPU_ReadMem(4 bytes @ 0x40010800) - Data: 44 44 44 44  returns 0x04 (0000ms, 0650ms total)
T40D8 020:074 JLINK_ReadMemEx(0x40010804, 0x0004 Bytes, ..., AccessWidth = 33554436) -- CPU_ReadMem(4 bytes @ 0x40010804) - Data: 44 44 84 88  returns 0x04 (0001ms, 0651ms total)
T40D8 020:075 JLINK_ReadMemEx(0x40010808, 0x0004 Bytes, ..., AccessWidth = 33554436) -- CPU_ReadMem(4 bytes @ 0x40010808) - Data: 2C 9F 00 00  returns 0x04 (0000ms, 0651ms total)
T40D8 020:075 JLINK_ReadMemEx(0x4001080C, 0x0004 Bytes, ..., AccessWidth = 33554436) -- CPU_ReadMem(4 bytes @ 0x4001080C) - Data: 00 A0 00 00  returns 0x04 (0001ms, 0652ms total)
T40D8 020:076 JLINK_ReadMemEx(0x4001080C, 0x0004 Bytes, ..., AccessWidth = 33554436) -- CPU_ReadMem(4 bytes @ 0x4001080C) - Data: 00 A0 00 00  returns 0x04 (0000ms, 0652ms total)
T40D8 020:076 JLINK_ReadMemEx(0x40010818, 0x0004 Bytes, ..., AccessWidth = 33554436) -- CPU_ReadMem(4 bytes @ 0x40010818) - Data: 00 00 00 00  returns 0x04 (0000ms, 0652ms total)
T40D8 020:076 JLINK_ReadMemEx(0x40010818, 0x0004 Bytes, ..., AccessWidth = 33554436) -- CPU_ReadMem(4 bytes @ 0x40010818) - Data: 00 00 00 00  returns 0x04 (0001ms, 0653ms total)
T3538 026:575 JLINK_ReadMemEx(0x08000BEE, 0x0002 Bytes, ..., AccessWidth = 33554432)Mis-aligned memory read: Address: 0x08000BEE, NumBytes: 2, Alignment: 2 (Halfword-aligned)
  ***** Mis-aligned memory read: Address: 0x08000BEE, NumBytes: 2, Alignment: 2 (Halfword-aligned) -- CPU_ReadMem(64 bytes @ 0x08000BC0) -- Updating C cache (64 bytes @ 0x08000BC0) -- Read from C cache (2 bytes @ 0x08000BEE) - Data: 20 60  returns 0x02 (0002ms, 0655ms total)
T3538 026:577 JLINK_ReadMemEx(0x08000BF0, 0x0010 Bytes, ..., AccessWidth = 33554432)Mis-aligned memory read: Address: 0x08000BF0, NumBytes: 16, Alignment: 2 (Halfword-aligned)
  ***** Mis-aligned memory read: Address: 0x08000BF0, NumBytes: 16, Alignment: 2 (Halfword-aligned) -- Read from C cache (16 bytes @ 0x08000BF0) - Data: E0 E7 C4 F8 00 80 DD E7 00 0C 01 40 00 18 01 40  returns 0x10 (0000ms, 0655ms total)
T3538 026:577 JLINK_ReadMemEx(0x08000C00, 0x002C Bytes, ..., AccessWidth = 33554432)Mis-aligned memory read: Address: 0x08000C00, NumBytes: 44, Alignment: 2 (Halfword-aligned)
  ***** Mis-aligned memory read: Address: 0x08000C00, NumBytes: 44, Alignment: 2 (Halfword-aligned) -- CPU_ReadMem(64 bytes @ 0x08000C00) -- Updating C cache (64 bytes @ 0x08000C00) -- Read from C cache (44 bytes @ 0x08000C00) - Data: 08 00 00 20 01 02 02 03 04 05 06 07 08 09 0A 0B ...  returns 0x2C (0002ms, 0657ms total)
T3538 026:579 JLINK_ReadMemEx(0x08000BEE, 0x0002 Bytes, ..., AccessWidth = 33554432)Mis-aligned memory read: Address: 0x08000BEE, NumBytes: 2, Alignment: 2 (Halfword-aligned)
  ***** Mis-aligned memory read: Address: 0x08000BEE, NumBytes: 2, Alignment: 2 (Halfword-aligned) -- Read from C cache (2 bytes @ 0x08000BEE) - Data: 20 60  returns 0x02 (0000ms, 0657ms total)
T3538 026:579 JLINK_Step() -- Read from C cache (2 bytes @ 0x08000BEE) -- CPU_WriteMem(4 bytes @ 0x20000000) -- Simulated  returns 0x00 (0001ms, 0658ms total)
T3538 026:580 JLINK_ReadReg(R15 (PC))  returns 0x08000BF0 (0000ms, 0658ms total)
T3538 026:580 JLINK_ReadReg(XPSR)  returns 0x01000000 (0000ms, 0658ms total)
T3538 026:580 JLINK_ReadMemEx(0x08000BF0, 0x0010 Bytes, ..., AccessWidth = 33554432)Mis-aligned memory read: Address: 0x08000BF0, NumBytes: 16, Alignment: 2 (Halfword-aligned)
  ***** Mis-aligned memory read: Address: 0x08000BF0, NumBytes: 16, Alignment: 2 (Halfword-aligned) -- Read from C cache (16 bytes @ 0x08000BF0) - Data: E0 E7 C4 F8 00 80 DD E7 00 0C 01 40 00 18 01 40  returns 0x10 (0000ms, 0658ms total)
T3538 026:580 JLINK_ReadMemEx(0x08000C00, 0x002C Bytes, ..., AccessWidth = 33554432)Mis-aligned memory read: Address: 0x08000C00, NumBytes: 44, Alignment: 2 (Halfword-aligned)
  ***** Mis-aligned memory read: Address: 0x08000C00, NumBytes: 44, Alignment: 2 (Halfword-aligned) -- Read from C cache (44 bytes @ 0x08000C00) - Data: 08 00 00 20 01 02 02 03 04 05 06 07 08 09 0A 0B ...  returns 0x2C (0000ms, 0658ms total)
T3538 026:580 JLINK_ReadMemEx(0x08000BF0, 0x0002 Bytes, ..., AccessWidth = 33554432)Mis-aligned memory read: Address: 0x08000BF0, NumBytes: 2, Alignment: 2 (Halfword-aligned)
  ***** Mis-aligned memory read: Address: 0x08000BF0, NumBytes: 2, Alignment: 2 (Halfword-aligned) -- Read from C cache (2 bytes @ 0x08000BF0) - Data: E0 E7  returns 0x02 (0000ms, 0658ms total)
T3538 026:580 JLINK_ReadMemEx(0x08000BF2, 0x0002 Bytes, ..., AccessWidth = 33554432)Mis-aligned memory read: Address: 0x08000BF2, NumBytes: 2, Alignment: 2 (Halfword-aligned)
  ***** Mis-aligned memory read: Address: 0x08000BF2, NumBytes: 2, Alignment: 2 (Halfword-aligned) -- Read from C cache (2 bytes @ 0x08000BF2) - Data: C4 F8  returns 0x02 (0000ms, 0658ms total)
T3538 026:580 JLINK_Step() -- Read from C cache (2 bytes @ 0x08000BF0) -- Simulated  returns 0x00 (0000ms, 0658ms total)
T3538 026:580 JLINK_ReadReg(R15 (PC))  returns 0x08000BB4 (0000ms, 0658ms total)
T3538 026:580 JLINK_ReadReg(XPSR)  returns 0x01000000 (0000ms, 0658ms total)
T3538 026:580 JLINK_ReadMemEx(0x08000BB2, 0x0002 Bytes, ..., AccessWidth = 33554432)Mis-aligned memory read: Address: 0x08000BB2, NumBytes: 2, Alignment: 2 (Halfword-aligned)
  ***** Mis-aligned memory read: Address: 0x08000BB2, NumBytes: 2, Alignment: 2 (Halfword-aligned) -- CPU_ReadMem(64 bytes @ 0x08000B80) -- Updating C cache (64 bytes @ 0x08000B80) -- Read from C cache (2 bytes @ 0x08000BB2) - Data: 00 BF  returns 0x02 (0001ms, 0659ms total)
T3538 026:581 JLINK_ReadMemEx(0x08000BB4, 0x003C Bytes, ..., AccessWidth = 33554432)Mis-aligned memory read: Address: 0x08000BB4, NumBytes: 60, Alignment: 2 (Halfword-aligned)
  ***** Mis-aligned memory read: Address: 0x08000BB4, NumBytes: 60, Alignment: 2 (Halfword-aligned) -- Read from C cache (60 bytes @ 0x08000BB4) - Data: FF F7 64 FC B0 FB F6 F1 06 FB 11 01 00 29 F7 D1 ...  returns 0x3C (0001ms, 0660ms total)
T3538 026:582 JLINK_ReadMemEx(0x08000BB4, 0x0002 Bytes, ..., AccessWidth = 33554432)Mis-aligned memory read: Address: 0x08000BB4, NumBytes: 2, Alignment: 2 (Halfword-aligned)
  ***** Mis-aligned memory read: Address: 0x08000BB4, NumBytes: 2, Alignment: 2 (Halfword-aligned) -- Read from C cache (2 bytes @ 0x08000BB4) - Data: FF F7  returns 0x02 (0000ms, 0660ms total)
T3538 026:582 JLINK_ReadReg(R0)  returns 0x00000002 (0000ms, 0660ms total)
T3538 026:582 JLINK_ReadReg(R1)  returns 0x00004000 (0000ms, 0660ms total)
T3538 026:582 JLINK_ReadReg(R2)  returns 0x00000001 (0000ms, 0660ms total)
T3538 026:582 JLINK_ReadReg(R3)  returns 0x00000000 (0000ms, 0660ms total)
T3538 026:582 JLINK_ReadReg(R4)  returns 0x20000000 (0000ms, 0660ms total)
T3538 026:582 JLINK_ReadReg(R5)  returns 0x40011800 (0000ms, 0660ms total)
T3538 026:582 JLINK_ReadReg(R6)  returns 0x000001F4 (0000ms, 0660ms total)
T3538 026:582 JLINK_ReadReg(R7)  returns 0x20000008 (0000ms, 0660ms total)
T3538 026:582 JLINK_ReadReg(R8)  returns 0x00000000 (0000ms, 0660ms total)
T3538 026:582 JLINK_ReadReg(R9)  returns 0x0000FF00 (0000ms, 0660ms total)
T3538 026:582 JLINK_ReadReg(R10)  returns 0x08000C48 (0000ms, 0660ms total)
T3538 026:582 JLINK_ReadReg(R11)  returns 0x00000000 (0000ms, 0660ms total)
T3538 026:582 JLINK_ReadReg(R12)  returns 0x0000F000 (0000ms, 0660ms total)
T3538 026:582 JLINK_ReadReg(R13 (SP))  returns 0x20000698 (0000ms, 0660ms total)
T3538 026:582 JLINK_ReadReg(R14)  returns 0x08000BE7 (0000ms, 0660ms total)
T3538 026:582 JLINK_ReadReg(R15 (PC))  returns 0x08000BB4 (0000ms, 0660ms total)
T3538 026:582 JLINK_ReadReg(XPSR)  returns 0x01000000 (0000ms, 0660ms total)
T3538 026:582 JLINK_ReadReg(MSP)  returns 0x20000698 (0000ms, 0660ms total)
T3538 026:582 JLINK_ReadReg(PSP)  returns 0x20001000 (0000ms, 0660ms total)
T3538 026:582 JLINK_ReadReg(CFBP)  returns 0x00000000 (0000ms, 0660ms total)
T40D8 026:582 JLINK_ReadMemEx(0x00000000, 0x0004 Bytes, ..., AccessWidth = 33554432) -- CPU_ReadMem(4 bytes @ 0x00000004)Mis-aligned memory read: Address: 0x00000000, NumBytes: 4, Alignment: 2 (Halfword-aligned)
  ***** Mis-aligned memory read: Address: 0x00000000, NumBytes: 4, Alignment: 2 (Halfword-aligned) -- Read from C cache (4 bytes @ 0x08000000) - Data: 98 06 00 20  returns 0x04 (0001ms, 0661ms total)
T40D8 026:583 JLINK_ReadMemU32(0xE0001004, 0x0001 Items, ...) - Data: 32 9C D0 03  returns 0x01 (0000ms, 0661ms total)
T40D8 026:584 JLINK_ReadMemEx(0x40010800, 0x000C Bytes, ..., AccessWidth = 33554436) -- CPU_ReadMem(12 bytes @ 0x40010800) - Data: 44 44 44 44 44 44 84 88 2C 9F 00 00  returns 0x0C (0000ms, 0661ms total)
T40D8 026:584 JLINK_ReadMemEx(0x40010800, 0x0004 Bytes, ..., AccessWidth = 33554436) -- CPU_ReadMem(4 bytes @ 0x40010800) - Data: 44 44 44 44  returns 0x04 (0001ms, 0662ms total)
T40D8 026:585 JLINK_ReadMemEx(0x40010804, 0x0004 Bytes, ..., AccessWidth = 33554436) -- CPU_ReadMem(4 bytes @ 0x40010804) - Data: 44 44 84 88  returns 0x04 (0000ms, 0662ms total)
T40D8 026:585 JLINK_ReadMemEx(0x40010808, 0x0004 Bytes, ..., AccessWidth = 33554436) -- CPU_ReadMem(4 bytes @ 0x40010808) - Data: 2C 9F 00 00  returns 0x04 (0000ms, 0662ms total)
T40D8 026:585 JLINK_ReadMemEx(0x4001080C, 0x0004 Bytes, ..., AccessWidth = 33554436) -- CPU_ReadMem(4 bytes @ 0x4001080C) - Data: 00 A0 00 00  returns 0x04 (0001ms, 0663ms total)
T40D8 026:586 JLINK_ReadMemEx(0x4001080C, 0x0004 Bytes, ..., AccessWidth = 33554436) -- CPU_ReadMem(4 bytes @ 0x4001080C) - Data: 00 A0 00 00  returns 0x04 (0000ms, 0663ms total)
T40D8 026:586 JLINK_ReadMemEx(0x40010818, 0x0004 Bytes, ..., AccessWidth = 33554436) -- CPU_ReadMem(4 bytes @ 0x40010818) - Data: 00 00 00 00  returns 0x04 (0001ms, 0664ms total)
T40D8 026:587 JLINK_ReadMemEx(0x40010818, 0x0004 Bytes, ..., AccessWidth = 33554436) -- CPU_ReadMem(4 bytes @ 0x40010818) - Data: 00 00 00 00  returns 0x04 (0000ms, 0664ms total)
T40D8 026:587 JLINK_ReadMemEx(0x08000BB4, 0x003C Bytes, ..., AccessWidth = 33554432)Mis-aligned memory read: Address: 0x08000BB4, NumBytes: 60, Alignment: 2 (Halfword-aligned)
  ***** Mis-aligned memory read: Address: 0x08000BB4, NumBytes: 60, Alignment: 2 (Halfword-aligned) -- Read from C cache (60 bytes @ 0x08000BB4) - Data: FF F7 64 FC B0 FB F6 F1 06 FB 11 01 00 29 F7 D1 ...  returns 0x3C (0000ms, 0664ms total)
T3538 027:060 JLINK_ReadMemEx(0x08000BB4, 0x0002 Bytes, ..., AccessWidth = 33554432)Mis-aligned memory read: Address: 0x08000BB4, NumBytes: 2, Alignment: 2 (Halfword-aligned)
  ***** Mis-aligned memory read: Address: 0x08000BB4, NumBytes: 2, Alignment: 2 (Halfword-aligned) -- Read from C cache (2 bytes @ 0x08000BB4) - Data: FF F7  returns 0x02 (0000ms, 0664ms total)
T3538 027:060 JLINK_SetBPEx(Addr = 0x08000BB8, Type = 0xFFFFFFF2)  returns 0x00000005 (0001ms, 0665ms total)
T3538 027:061 JLINK_SetBPEx(Addr = 0x08000BEE, Type = 0xFFFFFFF2)  returns 0x00000006 (0000ms, 0665ms total)
T3538 027:061 JLINK_Go() -- CPU_WriteMem(4 bytes @ 0xE0002000) -- CPU_WriteMem(4 bytes @ 0xE0002000) -- CPU_ReadMem(4 bytes @ 0xE0001000) -- CPU_WriteMem(4 bytes @ 0xE0002008) -- CPU_WriteMem(4 bytes @ 0xE000200C) -- CPU_WriteMem(4 bytes @ 0xE0001004) (0003ms, 0668ms total)
T3538 027:165 JLINK_IsHalted()  returns TRUE (0002ms, 0670ms total)
T3538 027:167 JLINK_Halt()  returns 0x00 (0000ms, 0668ms total)
T3538 027:167 JLINK_IsHalted()  returns TRUE (0000ms, 0668ms total)
T3538 027:167 JLINK_IsHalted()  returns TRUE (0000ms, 0668ms total)
T3538 027:167 JLINK_IsHalted()  returns TRUE (0000ms, 0668ms total)
T3538 027:167 JLINK_ReadReg(R15 (PC))  returns 0x08000BB8 (0000ms, 0668ms total)
T3538 027:167 JLINK_ReadReg(XPSR)  returns 0x01000000 (0001ms, 0669ms total)
T3538 027:168 JLINK_ClrBPEx(BPHandle = 0x00000005)  returns 0x00 (0000ms, 0669ms total)
T3538 027:168 JLINK_ClrBPEx(BPHandle = 0x00000006)  returns 0x00 (0000ms, 0669ms total)
T3538 027:168 JLINK_ReadMemU32(0xE000ED30, 0x0001 Items, ...) -- CPU_ReadMem(4 bytes @ 0xE000ED30) - Data: 03 00 00 00  returns 0x01 (0000ms, 0669ms total)
T3538 027:168 JLINK_ReadMemU32(0xE0001028, 0x0001 Items, ...) -- CPU_ReadMem(4 bytes @ 0xE0001028) - Data: 00 00 00 00  returns 0x01 (0001ms, 0670ms total)
T3538 027:169 JLINK_ReadMemU32(0xE0001038, 0x0001 Items, ...) -- CPU_ReadMem(4 bytes @ 0xE0001038) - Data: 00 02 00 00  returns 0x01 (0000ms, 0670ms total)
T3538 027:169 JLINK_ReadMemU32(0xE0001048, 0x0001 Items, ...) -- CPU_ReadMem(4 bytes @ 0xE0001048) - Data: 00 00 00 00  returns 0x01 (0001ms, 0671ms total)
T3538 027:170 JLINK_ReadMemU32(0xE0001058, 0x0001 Items, ...) -- CPU_ReadMem(4 bytes @ 0xE0001058) - Data: 00 00 00 00  returns 0x01 (0000ms, 0671ms total)
T3538 027:170 JLINK_ReadMemEx(0x08000BB6, 0x0002 Bytes, ..., AccessWidth = 33554432)Mis-aligned memory read: Address: 0x08000BB6, NumBytes: 2, Alignment: 2 (Halfword-aligned)
  ***** Mis-aligned memory read: Address: 0x08000BB6, NumBytes: 2, Alignment: 2 (Halfword-aligned) -- CPU_ReadMem(64 bytes @ 0x08000B80) -- Updating C cache (64 bytes @ 0x08000B80) -- Read from C cache (2 bytes @ 0x08000BB6) - Data: 64 FC  returns 0x02 (0001ms, 0672ms total)
T3538 027:171 JLINK_ReadMemEx(0x08000BB8, 0x003C Bytes, ..., AccessWidth = 33554432)Mis-aligned memory read: Address: 0x08000BB8, NumBytes: 60, Alignment: 2 (Halfword-aligned)
  ***** Mis-aligned memory read: Address: 0x08000BB8, NumBytes: 60, Alignment: 2 (Halfword-aligned) -- CPU_ReadMem(64 bytes @ 0x08000BC0) -- Updating C cache (64 bytes @ 0x08000BC0) -- Read from C cache (60 bytes @ 0x08000BB8) - Data: B0 FB F6 F1 06 FB 11 01 00 29 F7 D1 61 68 81 42 ...  returns 0x3C (0001ms, 0673ms total)
T3538 027:172 JLINK_ReadMemEx(0x08000BB8, 0x0002 Bytes, ..., AccessWidth = 33554432)Mis-aligned memory read: Address: 0x08000BB8, NumBytes: 2, Alignment: 2 (Halfword-aligned)
  ***** Mis-aligned memory read: Address: 0x08000BB8, NumBytes: 2, Alignment: 2 (Halfword-aligned) -- Read from C cache (2 bytes @ 0x08000BB8) - Data: B0 FB  returns 0x02 (0000ms, 0673ms total)
